
**** 11/05/25 21:40:30 ******* PSpice Lite (March 2016) ******* ID# 10813 ****

 ** Profile: "SCHEMATIC1-RO"  [ C:\Users\Andrei\Desktop\proiect_cef2_AAF\proiect_cef2_AAF-PSpiceFiles\SCHEMATIC1\RO.sim ] 


 ****     CIRCUIT DESCRIPTION


******************************************************************************




** Creating circuit file "RO.cir" 
** WARNING: THIS AUTOMATICALLY GENERATED FILE MAY BE OVERWRITTEN BY SUBSEQUENT SIMULATIONS

*Libraries: 
* Profile Libraries :
* Local Libraries :
.LIB "d:/arhiva facultate/arhiva anul 3/semestrul 1/proiect 1(cef 2)/lib_modelepspice_anexa_1/modele_a1_lib/1n4148.lib" 
.LIB "d:/arhiva facultate/arhiva anul 3/semestrul 1/proiect 1(cef 2)/lib_modelepspice_anexa_1/modele_a1_lib/bc846b.lib" 
.LIB "d:/arhiva facultate/arhiva anul 3/semestrul 1/proiect 1(cef 2)/lib_modelepspice_anexa_1/modele_a1_lib/bc856b.lib" 
* From [PSPICE NETLIST] section of C:\Users\Andrei\AppData\Roaming\SPB_16.6\cdssetup\OrCAD_PSpice\17.2.0\PSpice.ini file:
.lib "nomd.lib" 

*Analysis directives: 
.AC DEC 10 10 1MEG
.TEMP -10 0 27 50 70 120
.OPTIONS ADVCONV
.PROBE64 V(alias(*)) I(alias(*)) W(alias(*)) D(alias(*)) NOISE(alias(*)) 
.INC "..\SCHEMATIC1.net" 



**** INCLUDING SCHEMATIC1.net ****
* source PROIECT_CEF2_AAF
R_R14         N663861 N66336  150 TC=0,0 
Q_Q5         N67056 N67354 N67488 QBC846B 
Q_Q6         N67316 N67354 N67504 QBC846B 
Q_Q1         N66648 0 N67056 QBC846B 
C_C1         N66648 N66814  470p  TC=0,0 
R_R8         N67038 VOUT  8.2k TC=0,0 
Q_Q3         N66648 N66616 N66482 QBC856B 
X_U2         N675241 N66858 1N4148 
R_R3         N66488 N66336  220 TC=0,0 
R_R15         N66858 N675521  150 TC=0,0 
Q_Q4         N66616 N66616 N66488 QBC856B 
R_R4         N66858 N67488  470 TC=0,0 
R_R2         N66482 N66336  220 TC=0,0 
R_R6         N66858 N67504  330 TC=0,0 
X_U1         N67354 N675241 1N4148 
Q_Q7         N66814 N66648 N66606 QBC856B 
R_R1         0 0  220k TC=0,0 
R_R7         N66606 N66336  330 TC=0,0 
X_U3         N66814 N66990 1N4148 
R_R16         N664601 N663861  82 TC=0,0 
R_R9         0 N67038  910 TC=0,0 
R_R5         N67354 0  2.2k TC=0,0 
R_R17         N675521 N67935  82 TC=0,0 
C_C2         N66606 N66336  1u  TC=0,0 
X_U4         N66990 N67316 1N4148 
V_Vdd         N66336 0 8Vdc
Q_Q9         N66858 N67316 VOUT QBC856B 
V_Vss         0 N66858 8Vdc
Q_Q8         N66336 N66814 VOUT QBC846B 
Q_Q2         N66616 N67038 N67056 QBC846B 
X_D1         N664601 0 LED PARAMS: IS=1.7603e-027 RS=3  BV=5 IBV=5e-6         
X_D2         0 N67935 LED PARAMS: IS=1.7603e-027 RS=3  BV=5 IBV=5e-6         
V_V1         VOUT 0  AC 4.8
+SIN 0 4.8 1k 0 0 0

**** RESUMING RO.cir ****
.END

**** 11/05/25 21:40:30 ******* PSpice Lite (March 2016) ******* ID# 10813 ****

 ** Profile: "SCHEMATIC1-RO"  [ C:\Users\Andrei\Desktop\proiect_cef2_AAF\proiect_cef2_AAF-PSpiceFiles\SCHEMATIC1\RO.sim ] 


 ****     Diode MODEL PARAMETERS


******************************************************************************




               X_U2.1N4148     X_U1.1N4148     X_U3.1N4148     X_U4.1N4148     
          IS    4.352000E-09    4.352000E-09    4.352000E-09    4.352000E-09 
           N    1.906           1.906           1.906           1.906        
          BV  110             110             110             110            
         IBV  100.000000E-06  100.000000E-06  100.000000E-06  100.000000E-06 
          RS     .6458           .6458           .6458           .6458       
          TT    3.480000E-09    3.480000E-09    3.480000E-09    3.480000E-09 
         CJO  704.800000E-15  704.800000E-15  704.800000E-15  704.800000E-15 
          VJ     .869            .869            .869            .869        
           M     .03             .03             .03             .03         


               X_D1.model201   X_D2.model201   
          IS    1.760300E-27    1.760300E-27 
           N    2               2            
          BV    5               5            
         IBV    5.000000E-06    5.000000E-06 
          RS    3               3            


**** 11/05/25 21:40:30 ******* PSpice Lite (March 2016) ******* ID# 10813 ****

 ** Profile: "SCHEMATIC1-RO"  [ C:\Users\Andrei\Desktop\proiect_cef2_AAF\proiect_cef2_AAF-PSpiceFiles\SCHEMATIC1\RO.sim ] 


 ****     BJT MODEL PARAMETERS


******************************************************************************




               QBC846B         QBC856B         
               NPN             PNP             
       LEVEL    1               1            
          IS   18.220000E-15   20.140000E-15 
          BF  324.4           315.3          
          NF     .9932           .9974       
         VAF   82              39.15         
         IKF     .109            .079        
         ISE  289.400000E-18    6.578000E-15 
          NE    1.4             1.45         
          BR    8.29            8.68         
          NR     .9931           .9952       
         VAR   17.9             9.5          
         IKR     .09             .09         
         ISC    9.982000E-12   16.330000E-15 
          NC    1.763           1.15         
         ISS    0               0            
          RB   10              10            
         RBM    5               5.000000E-06 
         IRB    5.000000E-06    5.000000E-06 
          RE     .649            .663        
          RC     .7014           .718        
         CJE   12.440000E-12   11.350000E-12 
         VJE     .7579           .7071       
         MJE     .3656           .3808       
         CJC    3.347000E-12    6.395000E-12 
         VJC     .5463           .4951       
         MJC     .391            .44         
        XCJC     .6193           .6288       
         CJS    0               0            
         VJS     .75             .75         
         MJS     .333            .333        
          FC     .979            .9059       
          TF  490.800000E-12  654.600000E-12 
         XTF    9.51            5.387        
         VTF    2.927           6.245        
         ITF     .3131           .2108       
          TR   90.000000E-09   55.000000E-09 
          KF    0               0            
          AF    1               1            
          CN    2.42            2.2          
           D     .87             .52         


**** 11/05/25 21:40:30 ******* PSpice Lite (March 2016) ******* ID# 10813 ****

 ** Profile: "SCHEMATIC1-RO"  [ C:\Users\Andrei\Desktop\proiect_cef2_AAF\proiect_cef2_AAF-PSpiceFiles\SCHEMATIC1\RO.sim ] 


 ****     TEMPERATURE-ADJUSTED VALUES      TEMPERATURE =  -10.000 DEG C


******************************************************************************




 **** DIODE MODEL PARAMETERS

                 X_U2.1N4148    X_U1.1N4148    X_U3.1N4148  

         IS        1.492E-10      1.492E-10      1.492E-10  
         VJ        9.177E-01      9.177E-01      9.177E-01  
        CJO        7.033E-13      7.033E-13      7.033E-13  
         RS        6.458E-01      6.458E-01      6.458E-01  
        IKF        0.000E+00      0.000E+00      0.000E+00  
         BV        1.100E+02      1.100E+02      1.100E+02  

                 X_U4.1N4148   X_D1.model201  X_D2.model201 

         IS        1.492E-10      7.072E-29      7.072E-29  
         VJ        9.177E-01      1.033E+00      1.033E+00  
        CJO        7.033E-13      0.000E+00      0.000E+00  
         RS        6.458E-01      3.000E+00      3.000E+00  
        IKF        0.000E+00      0.000E+00      0.000E+00  
         BV        1.100E+02      5.000E+00      5.000E+00  


 **** BJT MODEL PARAMETERS

                   QBC846B        QBC856B                   

         BF        3.244E+02      3.153E+02  
        ISE        2.932E-18      7.808E-17  
        VJE        8.203E-01      7.758E-01  
        CJE        1.200E-11      1.087E-11  
         RE        6.490E-01      6.630E-01  
         RB        1.000E+01      1.000E+01  
         BR        8.290E+00      8.680E+00  
        ISC        2.603E-13      6.097E-17  
        VJC        6.348E-01      5.899E-01  
        CJC        3.116E-12      5.814E-12  
         RC        7.014E-01      7.180E-01  
        RBM        5.000E+00      5.000E-06  
         IS        2.941E-17      3.251E-17  
        ISS        0.000E+00      0.000E+00  
        VJS        8.134E-01      8.134E-01  
        CJS        0.000E+00      0.000E+00  
      GAMMA        1.000E-11      1.000E-11  
        RCO        0.000E+00      0.000E+00  
         VO        1.000E+01      1.000E+01  


**** 11/05/25 21:40:30 ******* PSpice Lite (March 2016) ******* ID# 10813 ****

 ** Profile: "SCHEMATIC1-RO"  [ C:\Users\Andrei\Desktop\proiect_cef2_AAF\proiect_cef2_AAF-PSpiceFiles\SCHEMATIC1\RO.sim ] 


 ****     SMALL SIGNAL BIAS SOLUTION       TEMPERATURE =  -10.000 DEG C


******************************************************************************



 NODE   VOLTAGE     NODE   VOLTAGE     NODE   VOLTAGE     NODE   VOLTAGE


( VOUT)    0.0000  (N66336)    8.0000 (N66482)    7.8299 (N66488)    7.8315     

(N66606)    4.9072 (N66616)    7.1327 (N66648)    4.1453 (N66814)    1.2179     

(N66858)   -8.0000 (N66990)     .5026 (N67038)    -.0019 (N67056)    -.6973     

(N67316)    -.2126 (N67354)   -6.5436 (N67488)   -7.2563 (N67504)   -7.2644     

(N67935)   -2.8339 (N663861)    4.6598                   (N664601)    2.8339    

(N675241)   -7.2718                   (N675521)   -4.6598                   




    VOLTAGE SOURCE CURRENTS
    NAME         CURRENT

    V_Vdd       -4.967E-01
    V_Vss       -2.904E-02
    V_V1         4.707E-01

    TOTAL POWER DISSIPATION   4.21E+00  WATTS


**** 11/05/25 21:40:30 ******* PSpice Lite (March 2016) ******* ID# 10813 ****

 ** Profile: "SCHEMATIC1-RO"  [ C:\Users\Andrei\Desktop\proiect_cef2_AAF\proiect_cef2_AAF-PSpiceFiles\SCHEMATIC1\RO.sim ] 


 ****     TEMPERATURE-ADJUSTED VALUES      TEMPERATURE =    0.000 DEG C


******************************************************************************




 **** DIODE MODEL PARAMETERS

                 X_U2.1N4148    X_U1.1N4148    X_U3.1N4148  

         IS        4.052E-10      4.052E-10      4.052E-10  
         VJ        9.048E-01      9.048E-01      9.048E-01  
        CJO        7.037E-13      7.037E-13      7.037E-13  
         RS        6.458E-01      6.458E-01      6.458E-01  
        IKF        0.000E+00      0.000E+00      0.000E+00  
         BV        1.100E+02      1.100E+02      1.100E+02  

                 X_U4.1N4148   X_D1.model201  X_D2.model201 

         IS        4.052E-10      1.832E-28      1.832E-28  
         VJ        9.048E-01      1.024E+00      1.024E+00  
        CJO        7.037E-13      0.000E+00      0.000E+00  
         RS        6.458E-01      3.000E+00      3.000E+00  
        IKF        0.000E+00      0.000E+00      0.000E+00  
         BV        1.100E+02      5.000E+00      5.000E+00  


 **** BJT MODEL PARAMETERS

                   QBC846B        QBC856B                   

         BF        3.244E+02      3.153E+02  
        ISE        1.142E-17      2.903E-16  
        VJE        8.037E-01      7.574E-01  
        CJE        1.212E-11      1.100E-11  
         RE        6.490E-01      6.630E-01  
         RB        1.000E+01      1.000E+01  
         BR        8.290E+00      8.680E+00  
        ISC        7.666E-13      3.193E-16  
        VJC        6.111E-01      5.645E-01  
        CJC        3.178E-12      5.970E-12  
         RC        7.014E-01      7.180E-01  
        RBM        5.000E+00      5.000E-06  
         IS        1.974E-16      2.182E-16  
        ISS        0.000E+00      0.000E+00  
        VJS        7.965E-01      7.965E-01  
        CJS        0.000E+00      0.000E+00  
      GAMMA        1.000E-11      1.000E-11  
        RCO        0.000E+00      0.000E+00  
         VO        1.000E+01      1.000E+01  


**** 11/05/25 21:40:30 ******* PSpice Lite (March 2016) ******* ID# 10813 ****

 ** Profile: "SCHEMATIC1-RO"  [ C:\Users\Andrei\Desktop\proiect_cef2_AAF\proiect_cef2_AAF-PSpiceFiles\SCHEMATIC1\RO.sim ] 


 ****     SMALL SIGNAL BIAS SOLUTION       TEMPERATURE =    0.000 DEG C


******************************************************************************



 NODE   VOLTAGE     NODE   VOLTAGE     NODE   VOLTAGE     NODE   VOLTAGE


( VOUT)    0.0000  (N66336)    8.0000 (N66482)    7.8334 (N66488)    7.8349     

(N66606)    5.0909 (N66616)    7.1549 (N66648)    4.3472 (N66814)    1.1904     

(N66858)   -8.0000 (N66990)     .4938 (N67038)    -.0018 (N67056)    -.6786     

(N67316)    -.2028 (N67354)   -6.5776 (N67488)   -7.2722 (N67504)   -7.2806     

(N67935)   -2.8929 (N663861)    4.6980                   (N664601)    2.8929    

(N675241)   -7.2888                   (N675521)   -4.6980                   




    VOLTAGE SOURCE CURRENTS
    NAME         CURRENT

    V_Vdd       -4.778E-01
    V_Vss       -2.872E-02
    V_V1         4.521E-01

    TOTAL POWER DISSIPATION   4.05E+00  WATTS


**** 11/05/25 21:40:30 ******* PSpice Lite (March 2016) ******* ID# 10813 ****

 ** Profile: "SCHEMATIC1-RO"  [ C:\Users\Andrei\Desktop\proiect_cef2_AAF\proiect_cef2_AAF-PSpiceFiles\SCHEMATIC1\RO.sim ] 


 ****     TEMPERATURE-ADJUSTED VALUES      TEMPERATURE =   27.000 DEG C


******************************************************************************




 **** DIODE MODEL PARAMETERS

                 X_U2.1N4148    X_U1.1N4148    X_U3.1N4148  

         IS        4.352E-09      4.352E-09      4.352E-09  
         VJ        8.690E-01      8.690E-01      8.690E-01  
        CJO        7.048E-13      7.048E-13      7.048E-13  
         RS        6.458E-01      6.458E-01      6.458E-01  
        IKF        0.000E+00      0.000E+00      0.000E+00  
         BV        1.100E+02      1.100E+02      1.100E+02  

                 X_U4.1N4148   X_D1.model201  X_D2.model201 

         IS        4.352E-09      1.760E-27      1.760E-27  
         VJ        8.690E-01      1.000E+00      1.000E+00  
        CJO        7.048E-13      0.000E+00      0.000E+00  
         RS        6.458E-01      3.000E+00      3.000E+00  
        IKF        0.000E+00      0.000E+00      0.000E+00  
         BV        1.100E+02      5.000E+00      5.000E+00  


 **** BJT MODEL PARAMETERS

                   QBC846B        QBC856B                   

         BF        3.244E+02      3.153E+02  
        ISE        2.894E-16      6.578E-15  
        VJE        7.579E-01      7.071E-01  
        CJE        1.244E-11      1.135E-11  
         RE        6.490E-01      6.630E-01  
         RB        1.000E+01      1.000E+01  
         BR        8.290E+00      8.680E+00  
        ISC        9.982E-12      1.633E-14  
        VJC        5.463E-01      4.951E-01  
        CJC        3.347E-12      6.395E-12  
         RC        7.014E-01      7.180E-01  
        RBM        5.000E+00      5.000E-06  
         IS        1.822E-14      2.014E-14  
        ISS        0.000E+00      0.000E+00  
        VJS        7.500E-01      7.500E-01  
        CJS        0.000E+00      0.000E+00  
      GAMMA        1.000E-11      1.000E-11  
        RCO        0.000E+00      0.000E+00  
         VO        1.000E+01      1.000E+01  


**** 11/05/25 21:40:30 ******* PSpice Lite (March 2016) ******* ID# 10813 ****

 ** Profile: "SCHEMATIC1-RO"  [ C:\Users\Andrei\Desktop\proiect_cef2_AAF\proiect_cef2_AAF-PSpiceFiles\SCHEMATIC1\RO.sim ] 


 ****     SMALL SIGNAL BIAS SOLUTION       TEMPERATURE =   27.000 DEG C


******************************************************************************



 NODE   VOLTAGE     NODE   VOLTAGE     NODE   VOLTAGE     NODE   VOLTAGE


( VOUT)    0.0000  (N66336)    8.0000 (N66482)    7.8428 (N66488)    7.8442     

(N66606)    5.5333 (N66616)    7.2154 (N66648)    4.8394 (N66814)    1.1175     

(N66858)   -8.0000 (N66990)     .4725 (N67038)    -.0017 (N67056)    -.6275     

(N67316)    -.1726 (N67354)   -6.6700 (N67488)   -7.3151 (N67504)   -7.3243     

(N67935)   -3.0516 (N663861)    4.8006                   (N664601)    3.0516    

(N675241)   -7.3350                   (N675521)   -4.8006                   




    VOLTAGE SOURCE CURRENTS
    NAME         CURRENT

    V_Vdd       -4.297E-01
    V_Vss       -2.786E-02
    V_V1         4.048E-01

    TOTAL POWER DISSIPATION   3.66E+00  WATTS


**** 11/05/25 21:40:30 ******* PSpice Lite (March 2016) ******* ID# 10813 ****

 ** Profile: "SCHEMATIC1-RO"  [ C:\Users\Andrei\Desktop\proiect_cef2_AAF\proiect_cef2_AAF-PSpiceFiles\SCHEMATIC1\RO.sim ] 


 ****     TEMPERATURE-ADJUSTED VALUES      TEMPERATURE =   50.000 DEG C


******************************************************************************




 **** DIODE MODEL PARAMETERS

                 X_U2.1N4148    X_U1.1N4148    X_U3.1N4148  

         IS        2.428E-08      2.428E-08      2.428E-08  
         VJ        8.377E-01      8.377E-01      8.377E-01  
        CJO        7.058E-13      7.058E-13      7.058E-13  
         RS        6.458E-01      6.458E-01      6.458E-01  
        IKF        0.000E+00      0.000E+00      0.000E+00  
         BV        1.100E+02      1.100E+02      1.100E+02  

                 X_U4.1N4148   X_D1.model201  X_D2.model201 

         IS        2.428E-08      9.057E-27      9.057E-27  
         VJ        8.377E-01      9.787E-01      9.787E-01  
        CJO        7.058E-13      0.000E+00      0.000E+00  
         RS        6.458E-01      3.000E+00      3.000E+00  
        IKF        0.000E+00      0.000E+00      0.000E+00  
         BV        1.100E+02      5.000E+00      5.000E+00  


 **** BJT MODEL PARAMETERS

                   QBC846B        QBC856B                   

         BF        3.244E+02      3.153E+02  
        ISE        3.004E-15      6.300E-14  
        VJE        7.181E-01      6.634E-01  
        CJE        1.272E-11      1.166E-11  
         RE        6.490E-01      6.630E-01  
         RB        1.000E+01      1.000E+01  
         BR        8.290E+00      8.680E+00  
        ISC        6.401E-11      2.820E-13  
        VJC        4.902E-01      4.351E-01  
        CJC        3.493E-12      6.762E-12  
         RC        7.014E-01      7.180E-01  
        RBM        5.000E+00      5.000E-06  
         IS        4.823E-13      5.331E-13  
        ISS        0.000E+00      0.000E+00  
        VJS        7.095E-01      7.095E-01  
        CJS        0.000E+00      0.000E+00  
      GAMMA        1.000E-11      1.000E-11  
        RCO        0.000E+00      0.000E+00  
         VO        1.000E+01      1.000E+01  


**** 11/05/25 21:40:30 ******* PSpice Lite (March 2016) ******* ID# 10813 ****

 ** Profile: "SCHEMATIC1-RO"  [ C:\Users\Andrei\Desktop\proiect_cef2_AAF\proiect_cef2_AAF-PSpiceFiles\SCHEMATIC1\RO.sim ] 


 ****     SMALL SIGNAL BIAS SOLUTION       TEMPERATURE =   50.000 DEG C


******************************************************************************



 NODE   VOLTAGE     NODE   VOLTAGE     NODE   VOLTAGE     NODE   VOLTAGE


( VOUT)    0.0000  (N66336)    8.0000 (N66482)    7.8509 (N66488)    7.8522     

(N66606)    5.8571 (N66616)    7.2679 (N66648)    5.2068 (N66814)    1.0569     

(N66858)   -8.0000 (N66990)     .4568 (N67038)    -.0016 (N67056)    -.5831     

(N67316)    -.1433 (N67354)   -6.7495 (N67488)   -7.3517 (N67504)   -7.3614     

(N67935)   -3.1861 (N663861)    4.8876                   (N664601)    3.1861    

(N675241)   -7.3747                   (N675521)   -4.8876                   




    VOLTAGE SOURCE CURRENTS
    NAME         CURRENT

    V_Vdd       -3.916E-01
    V_Vss       -2.712E-02
    V_V1         3.675E-01

    TOTAL POWER DISSIPATION   3.35E+00  WATTS


**** 11/05/25 21:40:30 ******* PSpice Lite (March 2016) ******* ID# 10813 ****

 ** Profile: "SCHEMATIC1-RO"  [ C:\Users\Andrei\Desktop\proiect_cef2_AAF\proiect_cef2_AAF-PSpiceFiles\SCHEMATIC1\RO.sim ] 


 ****     TEMPERATURE-ADJUSTED VALUES      TEMPERATURE =   70.000 DEG C


******************************************************************************




